T1968 059:657 SEGGER J-Link V6.30h Log File (0001ms, 3717ms total)
T1968 059:657 DLL Compiled: Mar 16 2018 18:02:51 (0001ms, 3717ms total)
T1968 059:657 Logging started @ 2019-08-16 08:08 (0001ms, 3717ms total)
T1968 059:658 JLINK_SetWarnOutHandler(...) (0000ms, 3717ms total)
T1968 059:658 JLINK_OpenEx(...)
Firmware: J-Link V9 compiled Oct 25 2018 11:46:07
Hardware: V9.40
S/N: 59401576
Feature(s): RDI, GDB, FlashDL, FlashBP, JFlash
TELNET listener socket opened on port 19021WEBSRV 
Starting webserver (0094ms, 3811ms total)
T1968 059:658 WEBSRV Webserver running on local port 19080 (0094ms, 3811ms total)
T1968 059:658   returns O.K. (0094ms, 3811ms total)
T1968 059:752 JLINK_GetEmuCaps()  returns 0xB9FF7BBF (0000ms, 3811ms total)
T1968 059:753 JLINK_TIF_GetAvailable(...) (0001ms, 3812ms total)
T1968 059:754 JLINK_SetErrorOutHandler(...) (0000ms, 3812ms total)
T1968 059:754 JLINK_ExecCommand("ProjectFile = "F:\JK525\Project\RVMDK£¨uv5£©\JLinkSettings.ini"", ...).   returns 0x00 (0002ms, 3814ms total)
T1968 059:756 JLINK_ExecCommand("Device = STM32F429IG", ...). Device "STM32F429IG" selected.  returns 0x00 (0001ms, 3815ms total)
T1968 059:757 JLINK_ExecCommand("DisableConnectionTimeout", ...).   returns 0x01 (0000ms, 3815ms total)
T1968 059:757 JLINK_GetHardwareVersion()  returns 0x16F30 (0000ms, 3815ms total)
T1968 059:758 JLINK_GetDLLVersion()  returns 63008 (0000ms, 3816ms total)
T1968 059:758 JLINK_GetFirmwareString(...) (0000ms, 3816ms total)
T1968 059:758 JLINK_GetDLLVersion()  returns 63008 (0000ms, 3816ms total)
T1968 059:758 JLINK_GetCompileDateTime() (0000ms, 3816ms total)
T1968 059:758 JLINK_GetFirmwareString(...) (0000ms, 3816ms total)
T1968 059:758 JLINK_GetHardwareVersion()  returns 0x16F30 (0000ms, 3816ms total)
T1968 059:758 JLINK_TIF_Select(JLINKARM_TIF_SWD)  returns 0x00 (0004ms, 3820ms total)
T1968 059:762 JLINK_SetSpeed(50000) (0001ms, 3821ms total)
T1968 059:763 JLINK_GetId() >0x10B TIF>Found SW-DP with ID 0x2BA01477 >0x0D TIF> >0x28 TIF> >0x0D TIF> >0x28 TIF> >0x0D TIF> >0x28 TIF> >0x0D TIF> >0x28 TIF> >0x0D TIF> >0x21 TIF> >0x0D TIF> >0x28 TIF> >0x0D TIF> >0x28 TIF> >0x0D TIF> >0x28 TIF> >0x0D TIF> >0x21 TIF> >0x0D TIF> >0x21 TIF> >0x0D TIF> >0x28 TIF> >0x0D TIF> >0x21 TIF> >0x0D TIF> >0x21 TIF> >0x0D TIF> >0x28 TIF> >0x0D TIF> >0x21 TIF> >0x0D TIF> >0x21 TIF> >0x0D TIF> >0x28 TIF> >0x0D TIF> >0x21 TIF> >0x0D TIF> >0x21 TIF> >0x0D TIF> >0x28 TIF>
 >0x0D TIF> >0x21 TIF> >0x0D TIF> >0x21 TIF> >0x0D TIF> >0x28 TIF> >0x0D TIF> >0x21 TIF> >0x0D TIF> >0x21 TIF> >0x0D TIF> >0x28 TIF> >0x0D TIF> >0x21 TIF> >0x0D TIF> >0x21 TIF> >0x10B TIF>Found SW-DP with ID 0x2BA01477 >0x0D TIF> >0x28 TIF> >0x0D TIF> >0x28 TIF> >0x0D TIF> >0x28 TIF> >0x0D TIF> >0x28 TIF> >0x0D TIF> >0x21 TIF> >0x0D TIF> >0x28 TIF>Scanning AP map to find all available APs >0x0D TIF> >0x28 TIF> >0x0D TIF> >0x21 TIF> >0x0D TIF> >0x21 TIF> >0x0D TIF> >0x28 TIF> >0x0D TIF> >0x21 TIF>
 >0x0D TIF> >0x21 TIF>AP[1]: Stopped AP scan as end of AP map has been reachedAP[0]: AHB-AP (IDR: 0x24770011)Iterating through AP map to find AHB-AP to use >0x42 TIF> >0x28 TIF> >0x0D TIF> >0x28 TIF> >0x0D TIF> >0x21 TIF> >0x0D TIF> >0x21 TIF> >0x42 TIF> >0x28 TIF> >0x0D TIF> >0x28 TIF> >0x0D TIF> >0x28 TIF> >0x0D TIF> >0x21 TIF> >0x0D TIF> >0x21 TIF>AP[0]: Core foundAP[0]: AHB-AP ROM base: 0xE00FF000 >0x0D TIF> >0x28 TIF> >0x0D TIF> >0x28 TIF> >0x0D TIF> >0x28 TIF> >0x0D TIF> >0x21 TIF> >0x0D TIF>
 >0x21 TIF>CPUID register: 0x410FC241. Implementer code: 0x41 (ARM)Found Cortex-M4 r0p1, Little endian. -- CPU_ReadMem(4 bytes @ 0xE000EDF0) -- CPU_WriteMem(4 bytes @ 0xE000EDF0) -- CPU_ReadMem(4 bytes @ 0xE0002000)FPUnit: 6 code (BP) slots and 2 literal slots -- CPU_ReadMem(4 bytes @ 0xE000EDFC) -- CPU_WriteMem(4 bytes @ 0xE000EDFC) -- CPU_ReadMem(4 bytes @ 0xE0001000) -- CPU_WriteMem(4 bytes @ 0xE0001000) -- CPU_ReadMem(4 bytes @ 0xE000ED88) -- CPU_WriteMem(4 bytes @ 0xE000ED88)
 -- CPU_ReadMem(4 bytes @ 0xE000ED88) -- CPU_WriteMem(4 bytes @ 0xE000ED88)CoreSight components:ROMTbl[0] @ E00FF000 -- CPU_ReadMem(16 bytes @ 0xE00FF000) -- CPU_ReadMem(16 bytes @ 0xE000EFF0) -- CPU_ReadMem(16 bytes @ 0xE000EFE0)ROMTbl[0][0]: E000E000, CID: B105E00D, PID: 000BB00C SCS-M7 -- CPU_ReadMem(16 bytes @ 0xE0001FF0) -- CPU_ReadMem(16 bytes @ 0xE0001FE0)ROMTbl[0][1]: E0001000, CID: B105E00D, PID: 003BB002 DWT -- CPU_ReadMem(16 bytes @ 0xE0002FF0) -- CPU_ReadMem(16 bytes @ 0xE0002FE0)
ROMTbl[0][2]: E0002000, CID: B105E00D, PID: 002BB003 FPB -- CPU_ReadMem(16 bytes @ 0xE0000FF0) -- CPU_ReadMem(16 bytes @ 0xE0000FE0)ROMTbl[0][3]: E0000000, CID: B105E00D, PID: 003BB001 ITM -- CPU_ReadMem(16 bytes @ 0xE00FF010) -- CPU_ReadMem(16 bytes @ 0xE0040FF0) -- CPU_ReadMem(16 bytes @ 0xE0040FE0)ROMTbl[0][4]: E0040000, CID: B105900D, PID: 000BB9A1 TPIU -- CPU_ReadMem(16 bytes @ 0xE0041FF0) -- CPU_ReadMem(16 bytes @ 0xE0041FE0)ROMTbl[0][5]: E0041000, CID: B105900D, PID: 000BB925 ETM >0x0D TIF>
 >0x21 TIF>  returns 0x2BA01477 (0244ms, 4065ms total)
T1968 060:007 JLINK_GetDLLVersion()  returns 63008 (0000ms, 4065ms total)
T1968 060:007 JLINK_CORE_GetFound()  returns 0xE0000FF (0000ms, 4065ms total)
T1968 060:007 JLINK_GetDebugInfo(0x100 = JLINKARM_ROM_TABLE_ADDR_INDEX) -- Value=0xE00FF000  returns 0x00 (0000ms, 4065ms total)
T1968 060:007 JLINK_GetDebugInfo(0x100 = JLINKARM_ROM_TABLE_ADDR_INDEX) -- Value=0xE00FF000  returns 0x00 (0000ms, 4065ms total)
T1968 060:007 JLINK_GetDebugInfo(0x101 = JLINKARM_DEBUG_INFO_ETM_ADDR_INDEX) -- Value=0xE0041000  returns 0x00 (0000ms, 4065ms total)
T1968 060:007 JLINK_ReadMemEx(0xE0041FD0, 0x0020 Bytes, ..., Flags = 0x02000004) -- CPU_ReadMem(32 bytes @ 0xE0041FD0) - Data: 04 00 00 00 00 00 00 00 00 00 00 00 00 00 00 00 ...  returns 0x20 (0001ms, 4066ms total)
T1968 060:008 JLINK_GetDebugInfo(0x102 = JLINKARM_DEBUG_INFO_MTB_ADDR_INDEX) -- Value=0x00000000  returns 0x00 (0000ms, 4066ms total)
T1968 060:008 JLINK_GetDebugInfo(0x103 = JLINKARM_DEBUG_INFO_TPIU_ADDR_INDEX) -- Value=0xE0040000  returns 0x00 (0000ms, 4066ms total)
T1968 060:008 JLINK_GetDebugInfo(0x104 = JLINKARM_DEBUG_INFO_ITM_ADDR_INDEX) -- Value=0xE0000000  returns 0x00 (0000ms, 4066ms total)
T1968 060:008 JLINK_GetDebugInfo(0x105 = JLINKARM_DEBUG_INFO_DWT_ADDR_INDEX) -- Value=0xE0001000  returns 0x00 (0000ms, 4066ms total)
T1968 060:008 JLINK_GetDebugInfo(0x106 = JLINKARM_DEBUG_INFO_FPB_ADDR_INDEX) -- Value=0xE0002000  returns 0x00 (0000ms, 4066ms total)
T1968 060:008 JLINK_GetDebugInfo(0x107 = JLINKARM_DEBUG_INFO_NVIC_ADDR_INDEX) -- Value=0xE000E000  returns 0x00 (0000ms, 4066ms total)
T1968 060:008 JLINK_GetDebugInfo(0x10C = JLINKARM_DEBUG_INFO_DBG_ADDR_INDEX) -- Value=0xE000EDF0  returns 0x00 (0000ms, 4066ms total)
T1968 060:008 JLINK_GetDebugInfo(0x01 = Unknown) -- Value=0x00000001  returns 0x00 (0000ms, 4066ms total)
T1968 060:008 JLINK_ReadMemU32(0xE000ED00, 0x0001 Items, ...) -- CPU_ReadMem(4 bytes @ 0xE000ED00) - Data: 41 C2 0F 41  returns 0x01 (0001ms, 4067ms total)
T1968 060:009 JLINK_GetDebugInfo(0x10F = JLINKARM_DEBUG_INFO_HAS_CORTEX_M_SECURITY_EXT_INDEX) -- Value=0x00000000  returns 0x00 (0000ms, 4067ms total)
T1968 060:009 JLINK_SetResetType(JLINKARM_CM3_RESET_TYPE_NORMAL)  returns JLINKARM_CM3_RESET_TYPE_NORMAL (0000ms, 4067ms total)
T1968 060:009 JLINK_Reset() -- CPU is running -- CPU_WriteMem(4 bytes @ 0xE000EDF0) -- CPU is running -- CPU_WriteMem(4 bytes @ 0xE000EDFC)Reset: Halt core after reset via DEMCR.VC_CORERESET. >0x35 TIF>Reset: Reset device via AIRCR.SYSRESETREQ. -- CPU is running -- CPU_WriteMem(4 bytes @ 0xE000ED0C) >0x0D TIF> >0x28 TIF> -- CPU_ReadMem(4 bytes @ 0xE000EDF0) -- CPU_ReadMem(4 bytes @ 0xE000EDF0) -- CPU is running -- CPU_WriteMem(4 bytes @ 0xE000EDF0) -- CPU is running -- CPU_WriteMem(4 bytes @ 0xE000EDFC)
 -- CPU_ReadMem(4 bytes @ 0xE000EDF0) -- CPU_WriteMem(4 bytes @ 0xE0002000) -- CPU_ReadMem(4 bytes @ 0xE000EDFC) -- CPU_ReadMem(4 bytes @ 0xE0001000) (0072ms, 4139ms total)
T1968 060:081 JLINK_ReadReg(R15 (PC))  returns 0x080001C0 (0000ms, 4139ms total)
T1968 060:081 JLINK_ReadReg(XPSR)  returns 0x01000000 (0000ms, 4139ms total)
T1968 060:081 JLINK_Halt()  returns 0x00 (0000ms, 4139ms total)
T1968 060:081 JLINK_ReadMemU32(0xE000EDF0, 0x0001 Items, ...) -- CPU_ReadMem(4 bytes @ 0xE000EDF0) - Data: 03 00 03 00  returns 0x01 (0001ms, 4140ms total)
T1968 060:082 JLINK_WriteU32(0xE000EDF0, 0xA05F0003) -- CPU_WriteMem(4 bytes @ 0xE000EDF0)  returns 0x00 (0001ms, 4141ms total)
T1968 060:083 JLINK_WriteU32(0xE000EDFC, 0x01000000) -- CPU_WriteMem(4 bytes @ 0xE000EDFC)  returns 0x00 (0001ms, 4142ms total)
T1968 060:084 JLINK_GetHWStatus(...)  returns 0x00 (0001ms, 4143ms total)
T1968 060:085 JLINK_GetNumBPUnits(Type = 0xFFFFFF00)  returns 0x06 (0000ms, 4143ms total)
T1968 060:085 JLINK_GetNumBPUnits(Type = 0xF0)  returns 0x2000 (0000ms, 4143ms total)
T1968 060:085 JLINK_GetNumWPUnits()  returns 0x04 (0000ms, 4143ms total)
T1968 060:085 JLINK_GetSpeed()  returns 0x2EE0 (0000ms, 4143ms total)
T1968 060:085 JLINK_ReadMemU32(0xE000E004, 0x0001 Items, ...) -- CPU_ReadMem(4 bytes @ 0xE000E004) - Data: 02 00 00 00  returns 0x01 (0001ms, 4144ms total)
T1968 060:086 JLINK_ReadMemU32(0xE000E004, 0x0001 Items, ...) -- CPU_ReadMem(4 bytes @ 0xE000E004) - Data: 02 00 00 00  returns 0x01 (0001ms, 4145ms total)
T1968 060:087 JLINK_WriteMemEx(0xE0001000, 0x001C Bytes, ..., Flags = 0x02000004) - Data: 01 00 00 00 00 00 00 00 00 00 00 00 00 00 00 00 ... -- CPU_WriteMem(28 bytes @ 0xE0001000)  returns 0x1C (0002ms, 4147ms total)
T1968 060:089 JLINK_ReadReg(R15 (PC))  returns 0x080001C0 (0000ms, 4147ms total)
T1968 060:089 JLINK_ReadReg(XPSR)  returns 0x01000000 (0000ms, 4147ms total)
T1968 060:232 JLINK_SetResetType(JLINKARM_CM3_RESET_TYPE_NORMAL)  returns JLINKARM_CM3_RESET_TYPE_NORMAL (0000ms, 4147ms total)
T1968 060:232 JLINK_Reset() -- CPU_WriteMem(4 bytes @ 0xE000EDF0) -- CPU_WriteMem(4 bytes @ 0xE000EDFC)Reset: Halt core after reset via DEMCR.VC_CORERESET. >0x35 TIF>Reset: Reset device via AIRCR.SYSRESETREQ. -- CPU_WriteMem(4 bytes @ 0xE000ED0C) >0x0D TIF> >0x28 TIF> -- CPU_ReadMem(4 bytes @ 0xE000EDF0) -- CPU_ReadMem(4 bytes @ 0xE000EDF0) -- CPU_WriteMem(4 bytes @ 0xE000EDF0) -- CPU_WriteMem(4 bytes @ 0xE000EDFC) -- CPU_ReadMem(4 bytes @ 0xE000EDF0) -- CPU_WriteMem(4 bytes @ 0xE0002000)
 -- CPU_ReadMem(4 bytes @ 0xE000EDFC) -- CPU_ReadMem(4 bytes @ 0xE0001000) (0076ms, 4223ms total)
T1968 060:308 JLINK_ReadReg(R15 (PC))  returns 0x080001C0 (0000ms, 4223ms total)
T1968 060:308 JLINK_ReadReg(XPSR)  returns 0x01000000 (0000ms, 4223ms total)
T1968 060:308 JLINK_ReadReg(R0)  returns 0x00000000 (0000ms, 4223ms total)
T1968 060:308 JLINK_ReadReg(R1)  returns 0x00000000 (0000ms, 4223ms total)
T1968 060:308 JLINK_ReadReg(R2)  returns 0x00000000 (0000ms, 4223ms total)
T1968 060:308 JLINK_ReadReg(R3)  returns 0x00000000 (0000ms, 4223ms total)
T1968 060:308 JLINK_ReadReg(R4)  returns 0x00000000 (0000ms, 4223ms total)
T1968 060:308 JLINK_ReadReg(R5)  returns 0x00000000 (0000ms, 4223ms total)
T1968 060:308 JLINK_ReadReg(R6)  returns 0x00000000 (0000ms, 4223ms total)
T1968 060:308 JLINK_ReadReg(R7)  returns 0x00000000 (0000ms, 4223ms total)
T1968 060:308 JLINK_ReadReg(R8)  returns 0x00000000 (0000ms, 4223ms total)
T1968 060:308 JLINK_ReadReg(R9)  returns 0x00000000 (0000ms, 4223ms total)
T1968 060:308 JLINK_ReadReg(R10)  returns 0x00000000 (0000ms, 4223ms total)
T1968 060:308 JLINK_ReadReg(R11)  returns 0x00000000 (0000ms, 4223ms total)
T1968 060:308 JLINK_ReadReg(R12)  returns 0x00000000 (0000ms, 4223ms total)
T1968 060:308 JLINK_ReadReg(R13 (SP))  returns 0x20008038 (0000ms, 4223ms total)
T1968 060:308 JLINK_ReadReg(R14)  returns 0xFFFFFFFF (0000ms, 4223ms total)
T1968 060:308 JLINK_ReadReg(R15 (PC))  returns 0x080001C0 (0000ms, 4223ms total)
T1968 060:308 JLINK_ReadReg(XPSR)  returns 0x01000000 (0000ms, 4223ms total)
T1968 060:308 JLINK_ReadReg(MSP)  returns 0x20008038 (0000ms, 4223ms total)
T1968 060:308 JLINK_ReadReg(PSP)  returns 0x00000000 (0000ms, 4223ms total)
T1968 060:308 JLINK_ReadReg(CFBP)  returns 0x00000000 (0000ms, 4223ms total)
T1968 060:308 JLINK_ReadReg(FPSCR)  returns 0x00000000 (0003ms, 4226ms total)
T1968 060:311 JLINK_ReadReg(FPS0)  returns 0x00000000 (0000ms, 4226ms total)
T1968 060:311 JLINK_ReadReg(FPS1)  returns 0x00000000 (0000ms, 4226ms total)
T1968 060:311 JLINK_ReadReg(FPS2)  returns 0x00000000 (0000ms, 4226ms total)
T1968 060:311 JLINK_ReadReg(FPS3)  returns 0x00000000 (0000ms, 4226ms total)
T1968 060:311 JLINK_ReadReg(FPS4)  returns 0x00000000 (0000ms, 4226ms total)
T1968 060:311 JLINK_ReadReg(FPS5)  returns 0x00000000 (0000ms, 4226ms total)
T1968 060:311 JLINK_ReadReg(FPS6)  returns 0x00000000 (0000ms, 4226ms total)
T1968 060:311 JLINK_ReadReg(FPS7)  returns 0x00000000 (0000ms, 4226ms total)
T1968 060:311 JLINK_ReadReg(FPS8)  returns 0x00000000 (0000ms, 4226ms total)
T1968 060:311 JLINK_ReadReg(FPS9)  returns 0x00000000 (0000ms, 4226ms total)
T1968 060:311 JLINK_ReadReg(FPS10)  returns 0x00000000 (0000ms, 4226ms total)
T1968 060:311 JLINK_ReadReg(FPS11)  returns 0x00000000 (0000ms, 4226ms total)
T1968 060:311 JLINK_ReadReg(FPS12)  returns 0x00000000 (0000ms, 4226ms total)
T1968 060:311 JLINK_ReadReg(FPS13)  returns 0x00000000 (0000ms, 4226ms total)
T1968 060:311 JLINK_ReadReg(FPS14)  returns 0x00000000 (0000ms, 4226ms total)
T1968 060:311 JLINK_ReadReg(FPS15)  returns 0x00000000 (0000ms, 4226ms total)
T1968 060:311 JLINK_ReadReg(FPS16)  returns 0x00000000 (0000ms, 4226ms total)
T1968 060:311 JLINK_ReadReg(FPS17)  returns 0x00000000 (0000ms, 4226ms total)
T1968 060:311 JLINK_ReadReg(FPS18)  returns 0x00000000 (0000ms, 4226ms total)
T1968 060:311 JLINK_ReadReg(FPS19)  returns 0x00000000 (0000ms, 4226ms total)
T1968 060:311 JLINK_ReadReg(FPS20)  returns 0x00000000 (0000ms, 4226ms total)
T1968 060:311 JLINK_ReadReg(FPS21)  returns 0x00000000 (0000ms, 4226ms total)
T1968 060:311 JLINK_ReadReg(FPS22)  returns 0x00000000 (0000ms, 4226ms total)
T1968 060:311 JLINK_ReadReg(FPS23)  returns 0x00000000 (0000ms, 4226ms total)
T1968 060:311 JLINK_ReadReg(FPS24)  returns 0x00000000 (0000ms, 4226ms total)
T1968 060:311 JLINK_ReadReg(FPS25)  returns 0x00000000 (0000ms, 4226ms total)
T1968 060:311 JLINK_ReadReg(FPS26)  returns 0x00000000 (0000ms, 4226ms total)
T1968 060:311 JLINK_ReadReg(FPS27)  returns 0x00000000 (0000ms, 4226ms total)
T1968 060:311 JLINK_ReadReg(FPS28)  returns 0x00000000 (0001ms, 4227ms total)
T1968 060:312 JLINK_ReadReg(FPS29)  returns 0x00000000 (0000ms, 4227ms total)
T1968 060:312 JLINK_ReadReg(FPS30)  returns 0x00000000 (0000ms, 4227ms total)
T1968 060:312 JLINK_ReadReg(FPS31)  returns 0x00000000 (0000ms, 4227ms total)
T1968 060:312 JLINK_ReadMemU32(0xE0001004, 0x0001 Items, ...) - Data: 00 00 00 00  returns 0x01 (0000ms, 4227ms total)
T1968 060:492 JLINK_ReadMemEx(0x080001AC, 0x003C Bytes, ..., Flags = 0x02000000) -- CPU_ReadMem(128 bytes @ 0x08000180) -- Updating C cache (128 bytes @ 0x08000180) -- Read from C cache (60 bytes @ 0x080001AC) - Data: DF F8 0C D0 00 F0 98 FB 00 48 00 47 31 0D 01 08 ...  returns 0x3C (0002ms, 4229ms total)
T1968 061:572 JLINK_ReadMemEx(0x20000170, 0x0002 Bytes, ..., Flags = 0x02000000) -- CPU_ReadMem(64 bytes @ 0x20000140) -- Updating C cache (64 bytes @ 0x20000140) -- Read from C cache (2 bytes @ 0x20000170) - Data: 1F 0C  returns 0x02 (0001ms, 4230ms total)
T1968 061:575 JLINK_ReadMemEx(0x2000017A, 0x0002 Bytes, ..., Flags = 0x02000000) -- Read from C cache (2 bytes @ 0x2000017A) - Data: 5F 0F  returns 0x02 (0000ms, 4230ms total)
T1968 061:578 JLINK_ReadMemEx(0x20000075, 0x0001 Bytes, ..., Flags = 0x02000000) -- CPU_ReadMem(64 bytes @ 0x20000040) -- Updating C cache (64 bytes @ 0x20000040) -- Read from C cache (1 bytes @ 0x20000075) - Data: 00  returns 0x01 (0002ms, 4232ms total)
T1968 061:581 JLINK_ReadMemEx(0x20000050, 0x0004 Bytes, ..., Flags = 0x02000000) -- Read from C cache (4 bytes @ 0x20000050) - Data: 00 00 00 00  returns 0x04 (0000ms, 4232ms total)
T07C4 061:609 JLINK_ReadMemEx(0x080001C0, 0x0002 Bytes, ..., Flags = 0x02000000) -- Read from C cache (2 bytes @ 0x080001C0) - Data: 06 48  returns 0x02 (0001ms, 4233ms total)
T07C4 061:610 JLINK_SetBPEx(Addr = 0x08010D30, Type = 0xFFFFFFF2)  returns 0x00000001 (0000ms, 4233ms total)
T07C4 061:610 JLINK_SetBPEx(Addr = 0x08009B28, Type = 0xFFFFFFF2)  returns 0x00000002 (0000ms, 4233ms total)
T07C4 061:610 JLINK_Go() -- CPU_WriteMem(4 bytes @ 0xE0002000) -- CPU_WriteMem(4 bytes @ 0xE0002000) -- CPU_ReadMem(4 bytes @ 0xE0001000) -- CPU_WriteMem(4 bytes @ 0xE0002008) -- CPU_WriteMem(4 bytes @ 0xE000200C) -- CPU_WriteMem(4 bytes @ 0xE0002010) -- CPU_WriteMem(4 bytes @ 0xE0002014) -- CPU_WriteMem(4 bytes @ 0xE0002018) -- CPU_WriteMem(4 bytes @ 0xE000201C) -- CPU_WriteMem(4 bytes @ 0xE0001004) (0007ms, 4240ms total)
T07C4 061:717 JLINK_IsHalted()  returns TRUE (0003ms, 4243ms total)
T07C4 061:720 JLINK_Halt()  returns 0x00 (0000ms, 4240ms total)
T07C4 061:720 JLINK_IsHalted()  returns TRUE (0000ms, 4240ms total)
T07C4 061:720 JLINK_IsHalted()  returns TRUE (0000ms, 4240ms total)
T07C4 061:720 JLINK_IsHalted()  returns TRUE (0000ms, 4240ms total)
T07C4 061:720 JLINK_ReadReg(R15 (PC))  returns 0x08010D30 (0000ms, 4240ms total)
T07C4 061:720 JLINK_ReadReg(XPSR)  returns 0x61000000 (0000ms, 4240ms total)
T07C4 061:720 JLINK_ClrBPEx(BPHandle = 0x00000001)  returns 0x00 (0000ms, 4240ms total)
T07C4 061:721 JLINK_ClrBPEx(BPHandle = 0x00000002)  returns 0x00 (0000ms, 4240ms total)
T07C4 061:721 JLINK_ReadMemU32(0xE000ED30, 0x0001 Items, ...) -- CPU_ReadMem(4 bytes @ 0xE000ED30) - Data: 02 00 00 00  returns 0x01 (0000ms, 4240ms total)
T07C4 061:721 JLINK_ReadMemU32(0xE0001028, 0x0001 Items, ...) -- CPU_ReadMem(4 bytes @ 0xE0001028) - Data: 00 00 00 00  returns 0x01 (0001ms, 4241ms total)
T07C4 061:722 JLINK_ReadMemU32(0xE0001038, 0x0001 Items, ...) -- CPU_ReadMem(4 bytes @ 0xE0001038) - Data: 00 02 00 00  returns 0x01 (0003ms, 4244ms total)
T07C4 061:725 JLINK_ReadMemU32(0xE0001048, 0x0001 Items, ...) -- CPU_ReadMem(4 bytes @ 0xE0001048) - Data: 00 00 00 00  returns 0x01 (0003ms, 4247ms total)
T07C4 061:728 JLINK_ReadMemU32(0xE0001058, 0x0001 Items, ...) -- CPU_ReadMem(4 bytes @ 0xE0001058) - Data: 00 00 00 00  returns 0x01 (0001ms, 4248ms total)
T07C4 061:729 JLINK_ReadReg(R0)  returns 0x08010D31 (0000ms, 4248ms total)
T07C4 061:729 JLINK_ReadReg(R1)  returns 0x20008038 (0000ms, 4248ms total)
T07C4 061:729 JLINK_ReadReg(R2)  returns 0x00000000 (0000ms, 4248ms total)
T07C4 061:729 JLINK_ReadReg(R3)  returns 0x0800E929 (0000ms, 4248ms total)
T07C4 061:729 JLINK_ReadReg(R4)  returns 0x08052B18 (0000ms, 4248ms total)
T07C4 061:730 JLINK_ReadReg(R5)  returns 0x08052B18 (0000ms, 4248ms total)
T07C4 061:730 JLINK_ReadReg(R6)  returns 0x00000000 (0000ms, 4248ms total)
T07C4 061:730 JLINK_ReadReg(R7)  returns 0x00000000 (0000ms, 4248ms total)
T07C4 061:730 JLINK_ReadReg(R8)  returns 0x00000000 (0000ms, 4248ms total)
T07C4 061:730 JLINK_ReadReg(R9)  returns 0x00000000 (0000ms, 4248ms total)
T07C4 061:730 JLINK_ReadReg(R10)  returns 0x00000000 (0000ms, 4248ms total)
T07C4 061:730 JLINK_ReadReg(R11)  returns 0x00000000 (0000ms, 4248ms total)
T07C4 061:730 JLINK_ReadReg(R12)  returns 0x00000000 (0000ms, 4248ms total)
T07C4 061:730 JLINK_ReadReg(R13 (SP))  returns 0x20008038 (0000ms, 4248ms total)
T07C4 061:730 JLINK_ReadReg(R14)  returns 0x08000901 (0000ms, 4248ms total)
T07C4 061:730 JLINK_ReadReg(R15 (PC))  returns 0x08010D30 (0000ms, 4248ms total)
T07C4 061:730 JLINK_ReadReg(XPSR)  returns 0x61000000 (0000ms, 4248ms total)
T07C4 061:730 JLINK_ReadReg(MSP)  returns 0x20008038 (0000ms, 4248ms total)
T07C4 061:730 JLINK_ReadReg(PSP)  returns 0x00000000 (0000ms, 4248ms total)
T07C4 061:730 JLINK_ReadReg(CFBP)  returns 0x00000000 (0000ms, 4248ms total)
T07C4 061:730 JLINK_ReadReg(FPSCR)  returns 0x00000000 (0003ms, 4251ms total)
T07C4 061:733 JLINK_ReadReg(FPS0)  returns 0x00000000 (0000ms, 4251ms total)
T07C4 061:733 JLINK_ReadReg(FPS1)  returns 0x00000000 (0000ms, 4251ms total)
T07C4 061:733 JLINK_ReadReg(FPS2)  returns 0x00000000 (0000ms, 4251ms total)
T07C4 061:733 JLINK_ReadReg(FPS3)  returns 0x00000000 (0000ms, 4251ms total)
T07C4 061:733 JLINK_ReadReg(FPS4)  returns 0x00000000 (0000ms, 4251ms total)
T07C4 061:733 JLINK_ReadReg(FPS5)  returns 0x00000000 (0000ms, 4251ms total)
T07C4 061:733 JLINK_ReadReg(FPS6)  returns 0x00000000 (0000ms, 4251ms total)
T07C4 061:733 JLINK_ReadReg(FPS7)  returns 0x00000000 (0000ms, 4251ms total)
T07C4 061:733 JLINK_ReadReg(FPS8)  returns 0x00000000 (0000ms, 4251ms total)
T07C4 061:733 JLINK_ReadReg(FPS9)  returns 0x00000000 (0000ms, 4251ms total)
T07C4 061:733 JLINK_ReadReg(FPS10)  returns 0x00000000 (0000ms, 4251ms total)
T07C4 061:733 JLINK_ReadReg(FPS11)  returns 0x00000000 (0000ms, 4251ms total)
T07C4 061:733 JLINK_ReadReg(FPS12)  returns 0x00000000 (0000ms, 4251ms total)
T07C4 061:733 JLINK_ReadReg(FPS13)  returns 0x00000000 (0000ms, 4251ms total)
T07C4 061:733 JLINK_ReadReg(FPS14)  returns 0x00000000 (0000ms, 4251ms total)
T07C4 061:733 JLINK_ReadReg(FPS15)  returns 0x00000000 (0000ms, 4251ms total)
T07C4 061:733 JLINK_ReadReg(FPS16)  returns 0x00000000 (0001ms, 4252ms total)
T07C4 061:734 JLINK_ReadReg(FPS17)  returns 0x00000000 (0000ms, 4252ms total)
T07C4 061:734 JLINK_ReadReg(FPS18)  returns 0x00000000 (0000ms, 4252ms total)
T07C4 061:734 JLINK_ReadReg(FPS19)  returns 0x00000000 (0000ms, 4252ms total)
T07C4 061:734 JLINK_ReadReg(FPS20)  returns 0x00000000 (0000ms, 4252ms total)
T07C4 061:734 JLINK_ReadReg(FPS21)  returns 0x00000000 (0000ms, 4252ms total)
T07C4 061:734 JLINK_ReadReg(FPS22)  returns 0x00000000 (0000ms, 4252ms total)
T07C4 061:734 JLINK_ReadReg(FPS23)  returns 0x00000000 (0000ms, 4252ms total)
T07C4 061:734 JLINK_ReadReg(FPS24)  returns 0x00000000 (0000ms, 4252ms total)
T07C4 061:734 JLINK_ReadReg(FPS25)  returns 0x00000000 (0000ms, 4252ms total)
T07C4 061:734 JLINK_ReadReg(FPS26)  returns 0x00000000 (0000ms, 4252ms total)
T07C4 061:734 JLINK_ReadReg(FPS27)  returns 0x00000000 (0000ms, 4252ms total)
T07C4 061:734 JLINK_ReadReg(FPS28)  returns 0x00000000 (0000ms, 4252ms total)
T07C4 061:734 JLINK_ReadReg(FPS29)  returns 0x00000000 (0000ms, 4252ms total)
T07C4 061:734 JLINK_ReadReg(FPS30)  returns 0x00000000 (0000ms, 4252ms total)
T07C4 061:734 JLINK_ReadReg(FPS31)  returns 0x00000000 (0000ms, 4252ms total)
T1968 061:740 JLINK_ReadMemU32(0xE0001004, 0x0001 Items, ...) -- CPU_ReadMem(4 bytes @ 0xE0001004) - Data: 5F 07 01 00  returns 0x01 (0001ms, 4253ms total)
T1968 061:745 JLINK_ReadMemEx(0x08010C30, 0x003C Bytes, ..., Flags = 0x02000000) -- CPU_ReadMem(128 bytes @ 0x08010C00) -- Updating C cache (128 bytes @ 0x08010C00) -- Read from C cache (60 bytes @ 0x08010C30) - Data: 91 B2 2A 88 5D 32 90 B2 00 23 50 22 F3 F7 D0 FE ...  returns 0x3C (0002ms, 4255ms total)
T1968 061:747 JLINK_ReadMemEx(0x08010C6C, 0x003C Bytes, ..., Flags = 0x02000000) -- CPU_ReadMem(64 bytes @ 0x08010C80) -- Updating C cache (64 bytes @ 0x08010C80) -- Read from C cache (60 bytes @ 0x08010C6C) - Data: 1E 49 08 60 28 20 48 60 69 88 2A 88 26 3A 90 B2 ...  returns 0x3C (0001ms, 4256ms total)
T1968 061:748 JLINK_ReadMemEx(0x08010CA8, 0x003C Bytes, ..., Flags = 0x02000000) -- CPU_ReadMem(64 bytes @ 0x08010CC0) -- Updating C cache (64 bytes @ 0x08010CC0) -- Read from C cache (60 bytes @ 0x08010CA8) - Data: 07 E0 6A 88 14 32 91 B2 28 88 28 23 64 22 F3 F7 ...  returns 0x3C (0001ms, 4257ms total)
T1968 061:749 JLINK_ReadMemEx(0x08010D10, 0x003C Bytes, ..., Flags = 0x02000000) -- CPU_ReadMem(128 bytes @ 0x08010D00) -- Updating C cache (128 bytes @ 0x08010D00) -- Read from C cache (60 bytes @ 0x08010D10) - Data: 10 B5 02 46 8C 7E CB 7E 44 EA 03 20 13 78 03 2B ...  returns 0x3C (0001ms, 4258ms total)
T07C4 065:339 JLINK_ReadMemEx(0x08010D30, 0x0002 Bytes, ..., Flags = 0x02000000) -- Read from C cache (2 bytes @ 0x08010D30) - Data: 01 20  returns 0x02 (0000ms, 4258ms total)
T07C4 065:339 JLINK_SetBPEx(Addr = 0x08009B28, Type = 0xFFFFFFF2)  returns 0x00000003 (0000ms, 4258ms total)
T07C4 065:339 JLINK_Go() -- CPU_WriteMem(4 bytes @ 0xE0002000) -- CPU_ReadMem(4 bytes @ 0xE0001000) -- CPU_WriteMem(4 bytes @ 0xE0002008) -- CPU_WriteMem(4 bytes @ 0xE000200C) (0005ms, 4263ms total)
T07C4 065:444 JLINK_IsHalted()  returns FALSE (0001ms, 4264ms total)
T07C4 065:545 JLINK_IsHalted()  returns FALSE (0001ms, 4264ms total)
T07C4 065:646 JLINK_IsHalted()  returns FALSE (0001ms, 4264ms total)
T07C4 065:747 JLINK_IsHalted()  returns FALSE (0001ms, 4264ms total)
T07C4 065:848 JLINK_IsHalted()  returns FALSE (0001ms, 4264ms total)
T07C4 065:949 JLINK_IsHalted()  returns FALSE (0001ms, 4264ms total)
T07C4 066:050 JLINK_IsHalted()  returns FALSE (0001ms, 4264ms total)
T07C4 066:151 JLINK_IsHalted()  returns FALSE (0001ms, 4264ms total)
T07C4 066:252 JLINK_IsHalted()  returns FALSE (0001ms, 4264ms total)
T07C4 066:353 JLINK_IsHalted()  returns FALSE (0001ms, 4264ms total)
T07C4 066:454 JLINK_IsHalted()  returns FALSE (0001ms, 4264ms total)
T07C4 066:555 JLINK_IsHalted()  returns FALSE (0001ms, 4264ms total)
T07C4 066:656 JLINK_IsHalted()  returns FALSE (0001ms, 4264ms total)
T07C4 066:757 JLINK_IsHalted()  returns FALSE (0001ms, 4264ms total)
T07C4 066:858 JLINK_IsHalted()  returns FALSE (0001ms, 4264ms total)
T07C4 066:959 JLINK_IsHalted()  returns FALSE (0001ms, 4264ms total)
T07C4 067:060 JLINK_IsHalted()  returns FALSE (0003ms, 4266ms total)
T07C4 067:164 JLINK_IsHalted()  returns FALSE (0001ms, 4264ms total)
T07C4 067:265 JLINK_IsHalted()  returns FALSE (0001ms, 4264ms total)
T07C4 067:366 JLINK_IsHalted()  returns FALSE (0001ms, 4264ms total)
T07C4 067:467 JLINK_IsHalted()  returns FALSE (0001ms, 4264ms total)
T07C4 067:568 JLINK_IsHalted()  returns FALSE (0001ms, 4264ms total)
T07C4 067:669 JLINK_IsHalted()  returns FALSE (0001ms, 4264ms total)
T07C4 067:770 JLINK_IsHalted()  returns FALSE (0001ms, 4264ms total)
T07C4 067:873 JLINK_IsHalted()  returns FALSE (0001ms, 4264ms total)
T07C4 067:974 JLINK_IsHalted()  returns FALSE (0001ms, 4264ms total)
T07C4 068:075 JLINK_IsHalted()  returns FALSE (0001ms, 4264ms total)
T07C4 068:176 JLINK_IsHalted()  returns FALSE (0001ms, 4264ms total)
T07C4 068:277 JLINK_IsHalted()  returns FALSE (0001ms, 4264ms total)
T07C4 068:378 JLINK_IsHalted()  returns FALSE (0000ms, 4263ms total)
T07C4 068:478 JLINK_IsHalted()  returns FALSE (0001ms, 4264ms total)
T07C4 068:579 JLINK_IsHalted()  returns FALSE (0001ms, 4264ms total)
T07C4 068:680 JLINK_IsHalted()  returns FALSE (0001ms, 4264ms total)
T07C4 068:781 JLINK_IsHalted()  returns FALSE (0001ms, 4264ms total)
T07C4 068:883 JLINK_IsHalted()  returns FALSE (0001ms, 4264ms total)
T07C4 068:985 JLINK_IsHalted()  returns FALSE (0001ms, 4264ms total)
T07C4 069:086 JLINK_IsHalted()  returns FALSE (0001ms, 4264ms total)
T07C4 069:187 JLINK_IsHalted()  returns FALSE (0002ms, 4265ms total)
T07C4 069:289 JLINK_IsHalted()  returns FALSE (0001ms, 4264ms total)
T07C4 069:390 JLINK_IsHalted()  returns FALSE (0001ms, 4264ms total)
T07C4 069:494 JLINK_IsHalted()  returns FALSE (0004ms, 4267ms total)
T07C4 069:598 JLINK_IsHalted()  returns FALSE (0001ms, 4264ms total)
T07C4 069:699 JLINK_IsHalted()  returns FALSE (0001ms, 4264ms total)
T07C4 069:800 JLINK_IsHalted()  returns FALSE (0001ms, 4264ms total)
T07C4 069:901 JLINK_IsHalted()  returns FALSE (0001ms, 4264ms total)
T07C4 070:002 JLINK_IsHalted()  returns FALSE (0001ms, 4264ms total)
T07C4 070:103 JLINK_IsHalted()  returns FALSE (0001ms, 4264ms total)
T07C4 070:204 JLINK_IsHalted()  returns FALSE (0001ms, 4264ms total)
T07C4 070:305 JLINK_IsHalted()  returns FALSE (0001ms, 4264ms total)
T07C4 070:406 JLINK_IsHalted()  returns FALSE (0001ms, 4264ms total)
T07C4 070:507 JLINK_IsHalted()  returns FALSE (0001ms, 4264ms total)
T07C4 070:608 JLINK_IsHalted()  returns FALSE (0001ms, 4264ms total)
T07C4 070:709 JLINK_IsHalted()  returns FALSE (0001ms, 4264ms total)
T07C4 070:810 JLINK_IsHalted()  returns FALSE (0001ms, 4264ms total)
T07C4 070:911 JLINK_IsHalted()  returns FALSE (0001ms, 4264ms total)
T07C4 071:012 JLINK_IsHalted()  returns FALSE (0001ms, 4264ms total)
T07C4 071:113 JLINK_IsHalted()  returns FALSE (0001ms, 4264ms total)
T07C4 071:214 JLINK_IsHalted()  returns FALSE (0001ms, 4264ms total)
T07C4 071:315 JLINK_IsHalted()  returns FALSE (0001ms, 4264ms total)
T07C4 071:416 JLINK_IsHalted()  returns FALSE (0001ms, 4264ms total)
T07C4 071:517 JLINK_IsHalted()  returns FALSE (0001ms, 4264ms total)
T07C4 071:618 JLINK_IsHalted()  returns FALSE (0001ms, 4264ms total)
T07C4 071:719 JLINK_IsHalted()  returns FALSE (0001ms, 4264ms total)
T07C4 071:820 JLINK_IsHalted()  returns FALSE (0001ms, 4264ms total)
T07C4 071:921 JLINK_IsHalted()  returns FALSE (0001ms, 4264ms total)
T07C4 072:023 JLINK_IsHalted()  returns FALSE (0002ms, 4265ms total)
T07C4 072:125 JLINK_IsHalted()  returns FALSE (0001ms, 4264ms total)
T07C4 072:226 JLINK_IsHalted()  returns FALSE (0001ms, 4264ms total)
T07C4 072:327 JLINK_IsHalted()  returns FALSE (0001ms, 4264ms total)
T07C4 072:428 JLINK_IsHalted()  returns FALSE (0001ms, 4264ms total)
T07C4 072:529 JLINK_IsHalted()  returns FALSE (0001ms, 4264ms total)
T07C4 072:630 JLINK_IsHalted()  returns FALSE (0001ms, 4264ms total)
T07C4 072:731 JLINK_IsHalted()  returns FALSE (0001ms, 4264ms total)
T07C4 072:832 JLINK_IsHalted()  returns FALSE (0001ms, 4264ms total)
T07C4 072:933 JLINK_IsHalted()  returns FALSE (0001ms, 4264ms total)
T07C4 073:034 JLINK_IsHalted()  returns FALSE (0001ms, 4264ms total)
T07C4 073:135 JLINK_IsHalted()  returns FALSE (0001ms, 4264ms total)
T07C4 073:236 JLINK_IsHalted()  returns FALSE (0001ms, 4264ms total)
T07C4 073:337 JLINK_IsHalted()  returns FALSE (0001ms, 4264ms total)
T07C4 073:438 JLINK_IsHalted()  returns FALSE (0005ms, 4268ms total)
T07C4 073:543 JLINK_IsHalted()  returns FALSE (0001ms, 4264ms total)
T07C4 073:644 JLINK_IsHalted()  returns FALSE (0001ms, 4264ms total)
T07C4 073:745 JLINK_IsHalted()  returns FALSE (0001ms, 4264ms total)
T07C4 073:848 JLINK_IsHalted()  returns FALSE (0001ms, 4264ms total)
T07C4 073:949 JLINK_IsHalted()  returns FALSE (0001ms, 4264ms total)
T07C4 074:050 JLINK_IsHalted()  returns FALSE (0001ms, 4264ms total)
T07C4 074:151 JLINK_IsHalted()  returns TRUE (0003ms, 4266ms total)
T07C4 074:154 JLINK_Halt()  returns 0x00 (0000ms, 4263ms total)
T07C4 074:154 JLINK_IsHalted()  returns TRUE (0000ms, 4263ms total)
T07C4 074:154 JLINK_IsHalted()  returns TRUE (0000ms, 4263ms total)
T07C4 074:154 JLINK_IsHalted()  returns TRUE (0000ms, 4263ms total)
T07C4 074:154 JLINK_ReadReg(R15 (PC))  returns 0x08009B28 (0001ms, 4264ms total)
T07C4 074:155 JLINK_ReadReg(XPSR)  returns 0x81000000 (0000ms, 4264ms total)
T07C4 074:155 JLINK_ClrBPEx(BPHandle = 0x00000003)  returns 0x00 (0000ms, 4264ms total)
T07C4 074:155 JLINK_ReadMemU32(0xE000ED30, 0x0001 Items, ...) -- CPU_ReadMem(4 bytes @ 0xE000ED30) - Data: 02 00 00 00  returns 0x01 (0001ms, 4265ms total)
T07C4 074:156 JLINK_ReadMemU32(0xE0001028, 0x0001 Items, ...) -- CPU_ReadMem(4 bytes @ 0xE0001028) - Data: 00 00 00 00  returns 0x01 (0001ms, 4266ms total)
T07C4 074:157 JLINK_ReadMemU32(0xE0001038, 0x0001 Items, ...) -- CPU_ReadMem(4 bytes @ 0xE0001038) - Data: 00 02 00 00  returns 0x01 (0001ms, 4267ms total)
T07C4 074:158 JLINK_ReadMemU32(0xE0001048, 0x0001 Items, ...) -- CPU_ReadMem(4 bytes @ 0xE0001048) - Data: 00 00 00 00  returns 0x01 (0001ms, 4268ms total)
T07C4 074:159 JLINK_ReadMemU32(0xE0001058, 0x0001 Items, ...) -- CPU_ReadMem(4 bytes @ 0xE0001058) - Data: 00 00 00 00  returns 0x01 (0001ms, 4269ms total)
T07C4 074:160 JLINK_ReadReg(R0)  returns 0x00000019 (0000ms, 4269ms total)
T07C4 074:160 JLINK_ReadReg(R1)  returns 0x000003E8 (0000ms, 4269ms total)
T07C4 074:160 JLINK_ReadReg(R2)  returns 0x00000000 (0000ms, 4269ms total)
T07C4 074:160 JLINK_ReadReg(R3)  returns 0x000003E8 (0000ms, 4269ms total)
T07C4 074:161 JLINK_ReadReg(R4)  returns 0x00000000 (0000ms, 4270ms total)
T07C4 074:161 JLINK_ReadReg(R5)  returns 0x08052B18 (0000ms, 4270ms total)
T07C4 074:161 JLINK_ReadReg(R6)  returns 0x00000028 (0000ms, 4270ms total)
T07C4 074:161 JLINK_ReadReg(R7)  returns 0x00000000 (0000ms, 4270ms total)
T07C4 074:161 JLINK_ReadReg(R8)  returns 0x00000001 (0000ms, 4270ms total)
T07C4 074:161 JLINK_ReadReg(R9)  returns 0x00000000 (0000ms, 4270ms total)
T07C4 074:161 JLINK_ReadReg(R10)  returns 0x00000000 (0000ms, 4270ms total)
T07C4 074:161 JLINK_ReadReg(R11)  returns 0x00000000 (0000ms, 4270ms total)
T07C4 074:161 JLINK_ReadReg(R12)  returns 0x20000084 (0000ms, 4270ms total)
T07C4 074:161 JLINK_ReadReg(R13 (SP))  returns 0x20007F58 (0000ms, 4270ms total)
T07C4 074:161 JLINK_ReadReg(R14)  returns 0x08004497 (0000ms, 4270ms total)
T07C4 074:161 JLINK_ReadReg(R15 (PC))  returns 0x08009B28 (0000ms, 4270ms total)
T07C4 074:161 JLINK_ReadReg(XPSR)  returns 0x81000000 (0000ms, 4270ms total)
T07C4 074:161 JLINK_ReadReg(MSP)  returns 0x20007F58 (0000ms, 4270ms total)
T07C4 074:161 JLINK_ReadReg(PSP)  returns 0x00000000 (0000ms, 4270ms total)
T07C4 074:161 JLINK_ReadReg(CFBP)  returns 0x04000000 (0000ms, 4270ms total)
T07C4 074:161 JLINK_ReadReg(FPSCR)  returns 0x80000011 (0003ms, 4273ms total)
T07C4 074:164 JLINK_ReadReg(FPS0)  returns 0x00000002 (0000ms, 4273ms total)
T07C4 074:164 JLINK_ReadReg(FPS1)  returns 0xFFFFFFFF (0000ms, 4273ms total)
T07C4 074:164 JLINK_ReadReg(FPS2)  returns 0xFFFFFFFF (0000ms, 4273ms total)
T07C4 074:164 JLINK_ReadReg(FPS3)  returns 0x00000000 (0000ms, 4273ms total)
T07C4 074:164 JLINK_ReadReg(FPS4)  returns 0x00000000 (0000ms, 4273ms total)
T07C4 074:164 JLINK_ReadReg(FPS5)  returns 0x00000000 (0000ms, 4273ms total)
T07C4 074:164 JLINK_ReadReg(FPS6)  returns 0x00000000 (0000ms, 4273ms total)
T07C4 074:164 JLINK_ReadReg(FPS7)  returns 0x00000000 (0000ms, 4273ms total)
T07C4 074:164 JLINK_ReadReg(FPS8)  returns 0x00000000 (0000ms, 4273ms total)
T07C4 074:164 JLINK_ReadReg(FPS9)  returns 0x00000000 (0000ms, 4273ms total)
T07C4 074:164 JLINK_ReadReg(FPS10)  returns 0x00000000 (0000ms, 4273ms total)
T07C4 074:165 JLINK_ReadReg(FPS11)  returns 0x00000000 (0000ms, 4273ms total)
T07C4 074:165 JLINK_ReadReg(FPS12)  returns 0x00000000 (0000ms, 4273ms total)
T07C4 074:165 JLINK_ReadReg(FPS13)  returns 0x00000000 (0000ms, 4273ms total)
T07C4 074:165 JLINK_ReadReg(FPS14)  returns 0x00000000 (0000ms, 4273ms total)
T07C4 074:165 JLINK_ReadReg(FPS15)  returns 0x00000000 (0000ms, 4273ms total)
T07C4 074:165 JLINK_ReadReg(FPS16)  returns 0x00000000 (0000ms, 4273ms total)
T07C4 074:165 JLINK_ReadReg(FPS17)  returns 0x00000000 (0000ms, 4273ms total)
T07C4 074:165 JLINK_ReadReg(FPS18)  returns 0x00000000 (0000ms, 4273ms total)
T07C4 074:165 JLINK_ReadReg(FPS19)  returns 0x00000000 (0000ms, 4273ms total)
T07C4 074:165 JLINK_ReadReg(FPS20)  returns 0x00000000 (0000ms, 4273ms total)
T07C4 074:165 JLINK_ReadReg(FPS21)  returns 0x00000000 (0000ms, 4273ms total)
T07C4 074:165 JLINK_ReadReg(FPS22)  returns 0x00000000 (0000ms, 4273ms total)
T07C4 074:165 JLINK_ReadReg(FPS23)  returns 0x00000000 (0000ms, 4273ms total)
T07C4 074:165 JLINK_ReadReg(FPS24)  returns 0x00000000 (0000ms, 4273ms total)
T07C4 074:165 JLINK_ReadReg(FPS25)  returns 0x00000000 (0000ms, 4273ms total)
T07C4 074:165 JLINK_ReadReg(FPS26)  returns 0x00000000 (0000ms, 4273ms total)
T07C4 074:165 JLINK_ReadReg(FPS27)  returns 0x00000000 (0000ms, 4273ms total)
T07C4 074:165 JLINK_ReadReg(FPS28)  returns 0x00000000 (0000ms, 4273ms total)
T07C4 074:165 JLINK_ReadReg(FPS29)  returns 0x00000000 (0000ms, 4273ms total)
T07C4 074:165 JLINK_ReadReg(FPS30)  returns 0x00000000 (0000ms, 4273ms total)
T07C4 074:165 JLINK_ReadReg(FPS31)  returns 0x00000000 (0000ms, 4273ms total)
T1968 074:166 JLINK_ReadMemEx(0x20008034, 0x0004 Bytes, ..., Flags = 0x02000000) -- CPU_ReadMem(64 bytes @ 0x20008000) -- Updating C cache (64 bytes @ 0x20008000) -- Read from C cache (4 bytes @ 0x20008034) - Data: 8B 0D 01 08  returns 0x04 (0001ms, 4274ms total)
T1968 074:167 JLINK_ReadMemEx(0x20008018, 0x0004 Bytes, ..., Flags = 0x02000000) -- Read from C cache (4 bytes @ 0x20008018) - Data: 18 2B 05 08  returns 0x04 (0000ms, 4274ms total)
T1968 074:167 JLINK_ReadMemEx(0x2000801C, 0x0004 Bytes, ..., Flags = 0x02000000) -- Read from C cache (4 bytes @ 0x2000801C) - Data: 18 2B 05 08  returns 0x04 (0000ms, 4274ms total)
T1968 074:167 JLINK_ReadMemEx(0x20008020, 0x0004 Bytes, ..., Flags = 0x02000000) -- Read from C cache (4 bytes @ 0x20008020) - Data: 00 00 00 00  returns 0x04 (0000ms, 4274ms total)
T1968 074:167 JLINK_ReadMemEx(0x20008024, 0x0004 Bytes, ..., Flags = 0x02000000) -- Read from C cache (4 bytes @ 0x20008024) - Data: 00 00 00 00  returns 0x04 (0000ms, 4274ms total)
T1968 074:167 JLINK_ReadMemEx(0x20008028, 0x0004 Bytes, ..., Flags = 0x02000000) -- Read from C cache (4 bytes @ 0x20008028) - Data: 00 00 00 00  returns 0x04 (0000ms, 4274ms total)
T1968 074:168 JLINK_ReadMemEx(0x2000802C, 0x0004 Bytes, ..., Flags = 0x02000000) -- Read from C cache (4 bytes @ 0x2000802C) - Data: 00 00 00 00  returns 0x04 (0000ms, 4274ms total)
T1968 074:168 JLINK_ReadMemEx(0x20008030, 0x0004 Bytes, ..., Flags = 0x02000000) -- Read from C cache (4 bytes @ 0x20008030) - Data: 00 00 00 00  returns 0x04 (0000ms, 4274ms total)
T1968 074:168 JLINK_ReadMemEx(0x20008014, 0x0001 Bytes, ..., Flags = 0x02000000) -- Read from C cache (1 bytes @ 0x20008014) - Data: 19  returns 0x01 (0000ms, 4274ms total)
T1968 074:168 JLINK_ReadMemEx(0x20008010, 0x0002 Bytes, ..., Flags = 0x02000000) -- Read from C cache (2 bytes @ 0x20008010) - Data: 00 00  returns 0x02 (0000ms, 4274ms total)
T1968 074:168 JLINK_ReadMemEx(0x2000800C, 0x0004 Bytes, ..., Flags = 0x02000000) -- Read from C cache (4 bytes @ 0x2000800C) - Data: 00 00 00 00  returns 0x04 (0000ms, 4274ms total)
T1968 074:168 JLINK_ReadMemEx(0x20008008, 0x0001 Bytes, ..., Flags = 0x02000000) -- Read from C cache (1 bytes @ 0x20008008) - Data: 00  returns 0x01 (0000ms, 4274ms total)
T1968 074:168 JLINK_ReadMemEx(0x20008004, 0x0001 Bytes, ..., Flags = 0x02000000) -- Read from C cache (1 bytes @ 0x20008004) - Data: 00  returns 0x01 (0000ms, 4274ms total)
T1968 074:168 JLINK_ReadMemEx(0x20008000, 0x0001 Bytes, ..., Flags = 0x02000000) -- Read from C cache (1 bytes @ 0x20008000) - Data: 00  returns 0x01 (0000ms, 4274ms total)
T1968 074:168 JLINK_ReadMemEx(0x20007FFC, 0x0001 Bytes, ..., Flags = 0x02000000) -- CPU_ReadMem(64 bytes @ 0x20007FC0) -- Updating C cache (64 bytes @ 0x20007FC0) -- Read from C cache (1 bytes @ 0x20007FFC) - Data: 00  returns 0x01 (0001ms, 4275ms total)
T1968 074:170 JLINK_ReadMemEx(0x20007FC0, 0x0001 Bytes, ..., Flags = 0x02000000) -- Read from C cache (1 bytes @ 0x20007FC0) - Data: 01  returns 0x01 (0000ms, 4275ms total)
T1968 074:170 JLINK_ReadMemEx(0x20007F5C, 0x0020 Bytes, ..., Flags = 0x02000000) -- CPU_ReadMem(64 bytes @ 0x20007F40) -- Updating C cache (64 bytes @ 0x20007F40) -- Read from C cache (32 bytes @ 0x20007F5C) - Data: FF FF FF FF FF FF FF FF 00 02 00 21 00 00 00 00 ...  returns 0x20 (0000ms, 4275ms total)
T1968 074:180 JLINK_ReadMemU32(0xE0001004, 0x0001 Items, ...) -- CPU_ReadMem(4 bytes @ 0xE0001004) - Data: CF 73 AF 57  returns 0x01 (0001ms, 4276ms total)
T1968 074:186 JLINK_ReadMemEx(0x08009B20, 0x003C Bytes, ..., Flags = 0x02000000) -- CPU_ReadMem(128 bytes @ 0x08009B00) -- Updating C cache (128 bytes @ 0x08009B00) -- Read from C cache (60 bytes @ 0x08009B20) - Data: 9D F8 BC 00 FF 28 6D D0 9D F8 BC 00 0A 38 36 28 ...  returns 0x3C (0001ms, 4277ms total)
T07C4 077:738 JLINK_ReadMemEx(0x08009B28, 0x0002 Bytes, ..., Flags = 0x02000000) -- Read from C cache (2 bytes @ 0x08009B28) - Data: 9D F8  returns 0x02 (0000ms, 4277ms total)
T07C4 077:738 JLINK_Step() -- Read from C cache (2 bytes @ 0x08009B28) -- CPU_ReadMem(4 bytes @ 0xE000ED18) -- CPU_WriteMem(4 bytes @ 0xE000ED18) -- CPU_ReadMem(4 bytes @ 0xE000ED18) -- CPU_WriteMem(4 bytes @ 0xE000ED18) -- Read from C cache (2 bytes @ 0x08009B2A) -- Not simulated -- CPU_WriteMem(4 bytes @ 0xE0002008)  returns 0x00 (0014ms, 4291ms total)
T07C4 077:752 JLINK_ReadReg(R15 (PC))  returns 0x08009B2C (0000ms, 4291ms total)
T07C4 077:752 JLINK_ReadReg(XPSR)  returns 0x81000000 (0000ms, 4291ms total)
T07C4 077:752 JLINK_SetBPEx(Addr = 0x08009B28, Type = 0xFFFFFFF2)  returns 0x00000004 (0000ms, 4291ms total)
T07C4 077:752 JLINK_Go() -- CPU_WriteMem(4 bytes @ 0xE0002000) -- CPU_ReadMem(4 bytes @ 0xE0001000) -- CPU_WriteMem(4 bytes @ 0xE0002008) (0004ms, 4295ms total)
T07C4 077:856 JLINK_IsHalted()  returns FALSE (0001ms, 4296ms total)
T07C4 077:957 JLINK_IsHalted()  returns FALSE (0001ms, 4296ms total)
T07C4 078:058 JLINK_IsHalted()  returns FALSE (0001ms, 4296ms total)
T07C4 078:159 JLINK_IsHalted()  returns FALSE (0001ms, 4296ms total)
T07C4 078:261 JLINK_IsHalted()  returns FALSE (0002ms, 4297ms total)
T07C4 078:363 JLINK_IsHalted()  returns FALSE (0001ms, 4296ms total)
T07C4 078:464 JLINK_IsHalted()  returns FALSE (0001ms, 4296ms total)
T07C4 078:565 JLINK_IsHalted()  returns FALSE (0001ms, 4296ms total)
T07C4 078:666 JLINK_IsHalted()  returns FALSE (0001ms, 4296ms total)
T07C4 078:767 JLINK_IsHalted()  returns FALSE (0001ms, 4296ms total)
T07C4 078:868 JLINK_IsHalted()  returns FALSE (0001ms, 4296ms total)
T07C4 078:969 JLINK_IsHalted()  returns FALSE (0001ms, 4296ms total)
T07C4 079:070 JLINK_IsHalted()  returns FALSE (0001ms, 4296ms total)
T07C4 079:171 JLINK_IsHalted()  returns FALSE (0001ms, 4296ms total)
T07C4 079:272 JLINK_IsHalted()  returns FALSE (0001ms, 4296ms total)
T07C4 079:373 JLINK_IsHalted()  returns FALSE (0001ms, 4296ms total)
T07C4 079:474 JLINK_IsHalted()  returns FALSE (0001ms, 4296ms total)
T07C4 079:575 JLINK_IsHalted()  returns FALSE (0001ms, 4296ms total)
T07C4 079:676 JLINK_IsHalted()  returns TRUE (0003ms, 4298ms total)
T07C4 079:679 JLINK_Halt()  returns 0x00 (0000ms, 4295ms total)
T07C4 079:679 JLINK_IsHalted()  returns TRUE (0000ms, 4295ms total)
T07C4 079:679 JLINK_IsHalted()  returns TRUE (0000ms, 4295ms total)
T07C4 079:679 JLINK_IsHalted()  returns TRUE (0000ms, 4295ms total)
T07C4 079:679 JLINK_ReadReg(R15 (PC))  returns 0x08009B28 (0000ms, 4295ms total)
T07C4 079:679 JLINK_ReadReg(XPSR)  returns 0x81000000 (0000ms, 4295ms total)
T07C4 079:679 JLINK_ClrBPEx(BPHandle = 0x00000004)  returns 0x00 (0000ms, 4295ms total)
T07C4 079:679 JLINK_ReadMemU32(0xE000ED30, 0x0001 Items, ...) -- CPU_ReadMem(4 bytes @ 0xE000ED30) - Data: 02 00 00 00  returns 0x01 (0001ms, 4296ms total)
T07C4 079:680 JLINK_ReadMemU32(0xE0001028, 0x0001 Items, ...) -- CPU_ReadMem(4 bytes @ 0xE0001028) - Data: 00 00 00 00  returns 0x01 (0001ms, 4297ms total)
T07C4 079:681 JLINK_ReadMemU32(0xE0001038, 0x0001 Items, ...) -- CPU_ReadMem(4 bytes @ 0xE0001038) - Data: 00 02 00 00  returns 0x01 (0001ms, 4298ms total)
T07C4 079:682 JLINK_ReadMemU32(0xE0001048, 0x0001 Items, ...) -- CPU_ReadMem(4 bytes @ 0xE0001048) - Data: 00 00 00 00  returns 0x01 (0001ms, 4299ms total)
T07C4 079:683 JLINK_ReadMemU32(0xE0001058, 0x0001 Items, ...) -- CPU_ReadMem(4 bytes @ 0xE0001058) - Data: 00 00 00 00  returns 0x01 (0001ms, 4300ms total)
T07C4 079:684 JLINK_ReadReg(R0)  returns 0x00000019 (0000ms, 4300ms total)
T07C4 079:684 JLINK_ReadReg(R1)  returns 0x000003E8 (0000ms, 4300ms total)
T07C4 079:684 JLINK_ReadReg(R2)  returns 0x00000000 (0000ms, 4300ms total)
T07C4 079:684 JLINK_ReadReg(R3)  returns 0x000003E8 (0000ms, 4300ms total)
T07C4 079:684 JLINK_ReadReg(R4)  returns 0x00000001 (0000ms, 4300ms total)
T07C4 079:684 JLINK_ReadReg(R5)  returns 0x08052B18 (0000ms, 4300ms total)
T07C4 079:684 JLINK_ReadReg(R6)  returns 0x00000028 (0000ms, 4300ms total)
T07C4 079:684 JLINK_ReadReg(R7)  returns 0x00000003 (0000ms, 4300ms total)
T07C4 079:684 JLINK_ReadReg(R8)  returns 0x00000001 (0000ms, 4300ms total)
T07C4 079:684 JLINK_ReadReg(R9)  returns 0x00000000 (0000ms, 4300ms total)
T07C4 079:684 JLINK_ReadReg(R10)  returns 0x00000000 (0000ms, 4300ms total)
T07C4 079:684 JLINK_ReadReg(R11)  returns 0x00000000 (0000ms, 4300ms total)
T07C4 079:684 JLINK_ReadReg(R12)  returns 0x20000084 (0000ms, 4300ms total)
T07C4 079:684 JLINK_ReadReg(R13 (SP))  returns 0x20007F58 (0000ms, 4300ms total)
T07C4 079:684 JLINK_ReadReg(R14)  returns 0x08004497 (0000ms, 4300ms total)
T07C4 079:684 JLINK_ReadReg(R15 (PC))  returns 0x08009B28 (0000ms, 4300ms total)
T07C4 079:684 JLINK_ReadReg(XPSR)  returns 0x81000000 (0001ms, 4301ms total)
T07C4 079:685 JLINK_ReadReg(MSP)  returns 0x20007F58 (0000ms, 4301ms total)
T07C4 079:685 JLINK_ReadReg(PSP)  returns 0x00000000 (0000ms, 4301ms total)
T07C4 079:685 JLINK_ReadReg(CFBP)  returns 0x04000000 (0000ms, 4301ms total)
T07C4 079:685 JLINK_ReadReg(FPSCR)  returns 0x80000011 (0003ms, 4304ms total)
T07C4 079:688 JLINK_ReadReg(FPS0)  returns 0x00000001 (0000ms, 4304ms total)
T07C4 079:688 JLINK_ReadReg(FPS1)  returns 0xFFFFFFFF (0000ms, 4304ms total)
T07C4 079:688 JLINK_ReadReg(FPS2)  returns 0xFFFFFFFF (0000ms, 4304ms total)
T07C4 079:688 JLINK_ReadReg(FPS3)  returns 0x00000000 (0000ms, 4304ms total)
T07C4 079:688 JLINK_ReadReg(FPS4)  returns 0x00000000 (0000ms, 4304ms total)
T07C4 079:688 JLINK_ReadReg(FPS5)  returns 0x00000000 (0000ms, 4304ms total)
T07C4 079:688 JLINK_ReadReg(FPS6)  returns 0x00000000 (0000ms, 4304ms total)
T07C4 079:688 JLINK_ReadReg(FPS7)  returns 0x00000000 (0000ms, 4304ms total)
T07C4 079:688 JLINK_ReadReg(FPS8)  returns 0x00000000 (0000ms, 4304ms total)
T07C4 079:688 JLINK_ReadReg(FPS9)  returns 0x00000000 (0000ms, 4304ms total)
T07C4 079:688 JLINK_ReadReg(FPS10)  returns 0x00000000 (0000ms, 4304ms total)
T07C4 079:688 JLINK_ReadReg(FPS11)  returns 0x00000000 (0000ms, 4304ms total)
T07C4 079:688 JLINK_ReadReg(FPS12)  returns 0x00000000 (0000ms, 4304ms total)
T07C4 079:688 JLINK_ReadReg(FPS13)  returns 0x00000000 (0000ms, 4304ms total)
T07C4 079:688 JLINK_ReadReg(FPS14)  returns 0x00000000 (0000ms, 4304ms total)
T07C4 079:688 JLINK_ReadReg(FPS15)  returns 0x00000000 (0000ms, 4304ms total)
T07C4 079:688 JLINK_ReadReg(FPS16)  returns 0x00000000 (0000ms, 4304ms total)
T07C4 079:688 JLINK_ReadReg(FPS17)  returns 0x00000000 (0000ms, 4304ms total)
T07C4 079:688 JLINK_ReadReg(FPS18)  returns 0x00000000 (0000ms, 4304ms total)
T07C4 079:688 JLINK_ReadReg(FPS19)  returns 0x00000000 (0000ms, 4304ms total)
T07C4 079:688 JLINK_ReadReg(FPS20)  returns 0x00000000 (0000ms, 4304ms total)
T07C4 079:688 JLINK_ReadReg(FPS21)  returns 0x00000000 (0000ms, 4304ms total)
T07C4 079:688 JLINK_ReadReg(FPS22)  returns 0x00000000 (0000ms, 4304ms total)
T07C4 079:688 JLINK_ReadReg(FPS23)  returns 0x00000000 (0000ms, 4304ms total)
T07C4 079:688 JLINK_ReadReg(FPS24)  returns 0x00000000 (0000ms, 4304ms total)
T07C4 079:688 JLINK_ReadReg(FPS25)  returns 0x00000000 (0000ms, 4304ms total)
T07C4 079:688 JLINK_ReadReg(FPS26)  returns 0x00000000 (0000ms, 4304ms total)
T07C4 079:688 JLINK_ReadReg(FPS27)  returns 0x00000000 (0000ms, 4304ms total)
T07C4 079:688 JLINK_ReadReg(FPS28)  returns 0x00000000 (0000ms, 4304ms total)
T07C4 079:688 JLINK_ReadReg(FPS29)  returns 0x00000000 (0000ms, 4304ms total)
T07C4 079:688 JLINK_ReadReg(FPS30)  returns 0x00000000 (0000ms, 4304ms total)
T07C4 079:688 JLINK_ReadReg(FPS31)  returns 0x00000000 (0000ms, 4304ms total)
T1968 079:689 JLINK_ReadMemEx(0x20008034, 0x0004 Bytes, ..., Flags = 0x02000000) -- CPU_ReadMem(64 bytes @ 0x20008000) -- Updating C cache (64 bytes @ 0x20008000) -- Read from C cache (4 bytes @ 0x20008034) - Data: 8B 0D 01 08  returns 0x04 (0001ms, 4305ms total)
T1968 079:690 JLINK_ReadMemEx(0x20008018, 0x0004 Bytes, ..., Flags = 0x02000000) -- Read from C cache (4 bytes @ 0x20008018) - Data: 18 2B 05 08  returns 0x04 (0000ms, 4305ms total)
T1968 079:691 JLINK_ReadMemEx(0x2000801C, 0x0004 Bytes, ..., Flags = 0x02000000) -- Read from C cache (4 bytes @ 0x2000801C) - Data: 18 2B 05 08  returns 0x04 (0000ms, 4306ms total)
T1968 079:691 JLINK_ReadMemEx(0x20008020, 0x0004 Bytes, ..., Flags = 0x02000000) -- Read from C cache (4 bytes @ 0x20008020) - Data: 00 00 00 00  returns 0x04 (0000ms, 4306ms total)
T1968 079:691 JLINK_ReadMemEx(0x20008024, 0x0004 Bytes, ..., Flags = 0x02000000) -- Read from C cache (4 bytes @ 0x20008024) - Data: 00 00 00 00  returns 0x04 (0000ms, 4306ms total)
T1968 079:691 JLINK_ReadMemEx(0x20008028, 0x0004 Bytes, ..., Flags = 0x02000000) -- Read from C cache (4 bytes @ 0x20008028) - Data: 00 00 00 00  returns 0x04 (0000ms, 4306ms total)
T1968 079:691 JLINK_ReadMemEx(0x2000802C, 0x0004 Bytes, ..., Flags = 0x02000000) -- Read from C cache (4 bytes @ 0x2000802C) - Data: 00 00 00 00  returns 0x04 (0000ms, 4306ms total)
T1968 079:691 JLINK_ReadMemEx(0x20008030, 0x0004 Bytes, ..., Flags = 0x02000000) -- Read from C cache (4 bytes @ 0x20008030) - Data: 00 00 00 00  returns 0x04 (0000ms, 4306ms total)
T1968 079:691 JLINK_ReadMemEx(0x20008014, 0x0001 Bytes, ..., Flags = 0x02000000) -- Read from C cache (1 bytes @ 0x20008014) - Data: 19  returns 0x01 (0000ms, 4306ms total)
T1968 079:691 JLINK_ReadMemEx(0x20008010, 0x0002 Bytes, ..., Flags = 0x02000000) -- Read from C cache (2 bytes @ 0x20008010) - Data: 00 00  returns 0x02 (0000ms, 4306ms total)
T1968 079:691 JLINK_ReadMemEx(0x2000800C, 0x0004 Bytes, ..., Flags = 0x02000000) -- Read from C cache (4 bytes @ 0x2000800C) - Data: 00 00 00 00  returns 0x04 (0000ms, 4306ms total)
T1968 079:691 JLINK_ReadMemEx(0x20008008, 0x0001 Bytes, ..., Flags = 0x02000000) -- Read from C cache (1 bytes @ 0x20008008) - Data: 00  returns 0x01 (0000ms, 4306ms total)
T1968 079:691 JLINK_ReadMemEx(0x20008004, 0x0001 Bytes, ..., Flags = 0x02000000) -- Read from C cache (1 bytes @ 0x20008004) - Data: 00  returns 0x01 (0000ms, 4306ms total)
T1968 079:691 JLINK_ReadMemEx(0x20008000, 0x0001 Bytes, ..., Flags = 0x02000000) -- Read from C cache (1 bytes @ 0x20008000) - Data: 00  returns 0x01 (0000ms, 4306ms total)
T1968 079:691 JLINK_ReadMemEx(0x20007FFC, 0x0001 Bytes, ..., Flags = 0x02000000) -- CPU_ReadMem(64 bytes @ 0x20007FC0) -- Updating C cache (64 bytes @ 0x20007FC0) -- Read from C cache (1 bytes @ 0x20007FFC) - Data: 00  returns 0x01 (0001ms, 4307ms total)
T1968 079:692 JLINK_ReadMemEx(0x20007FC0, 0x0001 Bytes, ..., Flags = 0x02000000) -- Read from C cache (1 bytes @ 0x20007FC0) - Data: 01  returns 0x01 (0000ms, 4307ms total)
